# GHZ S RI R 50.000000000000
0.001000000000 1.050075038173 -0.283265608332 -0.000071478447 0.000281568785 0.001720296710 -0.000117449329 -0.009423448126 0.000738376112
0.002000000000 0.885322410407 -0.529049610803 0.001019565019 0.000824400313 0.001031292249 -0.000071977797 -0.008712442286 -0.000646288452
0.003000000000 0.716501569403 -0.665520566245 0.003742989156 0.001798481865 -0.000162531432 0.000095737539 -0.009397206151 0.000292904561
0.004000000000 0.524316711172 -0.728825306386 0.008438760021 0.001282103629 0.000012734642 0.000176819556 -0.009663239623 0.000244369673
0.005000000000 0.354471630897 -0.733851569281 0.014210535193 -0.001453179581 0.000010724941 0.000075651030 -0.009819315249 0.000248348954
0.006000000000 0.222300483722 -0.701746100863 0.019675720934 -0.006591143676 0.000017610837 0.000086531525 -0.009983745004 0.000370679700
0.007000000000 0.119379358344 -0.661685609560 0.024388309454 -0.013977472641 -0.000265980984 0.000143357270 -0.010138837486 0.000454513757
0.008000000000 0.033381140178 -0.625286213532 0.027443161136 -0.023095743888 -0.000211233238 0.000109506809 -0.010293560852 0.000628872293
0.009000000000 -0.027261297882 -0.588429776748 0.028438305868 -0.033505199771 -0.000074758481 0.000047579403 -0.010357177966 0.000842165019
0.010000000000 -0.069842379636 -0.554538820870 0.027157519585 -0.044033423754 -0.000052917345 0.000067325221 -0.010339339834 0.000955026171
0.011000000000 -0.113803584625 -0.525193049860 0.023762228109 -0.054825882630 -0.000064377686 0.000078948184 -0.010411956086 0.001233974100
0.012000000000 -0.149628210664 -0.503225003610 0.018976314805 -0.065806628716 -0.000059692097 0.000091918466 -0.010447979961 0.001475734244
0.013000000000 -0.169919117800 -0.483297518636 0.012482325088 -0.076282278279 0.000002554459 0.000115872482 -0.010460330492 0.001668660706
0.014000000000 -0.192545961971 -0.467970233129 0.002453019256 -0.085905835671 -0.000059068868 0.000102195097 -0.010420012359 0.001851637901
0.015000000000 -0.210297892474 -0.460693149099 -0.009386848255 -0.093733229475 -0.000040532741 0.000141834242 -0.010395303963 0.002034569050
0.016000000000 -0.229149463657 -0.455313137433 -0.022367976905 -0.098913070962 -0.000054303859 0.000156342777 -0.010365391712 0.002172189234
0.017000000000 -0.248264326107 -0.453254795863 -0.035623863243 -0.102104857374 0.000014729372 0.000171122579 -0.010316011774 0.002340468950
0.018000000000 -0.272995328894 -0.448842090225 -0.048647708816 -0.102803098670 -0.000043124303 0.000197894729 -0.010260921728 0.002475087085
0.019000000000 -0.302960042536 -0.438863919478 -0.061765592451 -0.102662323914 0.000048220457 0.000188220118 -0.010195680082 0.002636695119
0.020000000000 -0.318210245293 -0.435328360240 -0.073279157801 -0.101537182925 0.000076912465 0.000234750170 -0.010165191718 0.002733946494
0.021000000000 -0.340007681726 -0.425364330527 -0.085523600951 -0.098916280757 0.000091033148 0.000242927731 -0.010101804142 0.002893422290
0.022000000000 -0.356022785074 -0.420778118699 -0.097446816699 -0.095840835366 0.000136687175 0.000249289595 -0.010020698485 0.002994063262
0.023000000000 -0.374298188982 -0.412856369517 -0.109790223790 -0.091621102598 0.000066635804 0.000276578615 -0.009954829887 0.003082760497
0.024000000000 -0.392223632012 -0.407391500083 -0.121478295037 -0.085990013082 0.000177482471 0.000267267870 -0.009902506272 0.003184022389
0.025000000000 -0.353325042537 -0.405741592958 -0.141510743606 -0.105965344639 0.000171968723 0.000263744437 -0.009999776493 0.003147594364
0.026000000000 -0.379917785304 -0.408206106444 -0.155236851505 -0.095416149128 0.000224260795 0.000190099458 -0.009916000478 0.003266504487
0.027000000000 -0.403067072244 -0.406606197256 -0.167068757318 -0.083042448456 0.000151745394 0.000282766836 -0.009829685758 0.003372083789
0.028000000000 -0.442473361242 -0.401591542784 -0.178316402385 -0.067968484868 0.000187565107 0.000222283347 -0.009764669761 0.003461608779
0.029000000000 -0.475434649821 -0.387090321036 -0.185034684136 -0.051125476653 0.000244475851 0.000268486506 -0.009664627955 0.003510290700
0.030000000000 -0.505796931704 -0.353817425114 -0.189624765556 -0.033379308976 0.000312454199 0.000257729141 -0.009528248793 0.003901652185
0.031000000000 -0.471754662280 -0.456364999277 -0.227333776660 -0.039770234590 0.000303776845 0.000202741006 -0.004412528915 0.004865505907
0.032000000000 -0.538312125213 -0.331779804204 -0.198110882306 -0.005924173122 0.000340187807 0.000220816672 -0.009413456497 0.003793688202
0.033000000000 -0.552432030584 -0.299525482833 -0.196381138767 0.006862162691 0.000341405047 0.000196205644 -0.009363272876 0.003862346645
0.034000000000 -0.549127058826 -0.292397598879 -0.196228520361 0.017020918176 0.000384822206 0.000212975835 -0.009316007112 0.003894548313
0.035000000000 -0.555138874338 -0.276609627921 -0.196780236996 0.028164409974 0.000373367160 0.000142330260 -0.009275383139 0.003932484850
0.036000000000 -0.559104690711 -0.279224775962 -0.197422266159 0.036530104146 0.000386423258 0.000149429680 -0.009241095238 0.003964834736
0.037000000000 -0.569452508522 -0.276960889291 -0.196249751158 0.047943491230 0.000399043844 0.000103977133 -0.009168937536 0.004017386260
0.038000000000 -0.591171562932 -0.276645213304 -0.195578447940 0.057407553659 0.000423156711 0.000091371091 -0.009179799444 0.004062224023
0.039000000000 -0.614230234654 -0.275938903725 -0.193957948796 0.069527508284 0.000445477689 0.000068111353 -0.009119971459 0.004101785254
0.040000000000 -0.635632798524 -0.267459381645 -0.189414367145 0.081050775809 0.000452741775 0.000059542830 -0.009068532723 0.004162285013
0.041000000000 -0.658023416989 -0.249634023013 -0.186797206278 0.093095463868 0.000459740443 0.000064390708 -0.008987638292 0.004213206238
0.042000000000 -0.684980715398 -0.231838086489 -0.181561156790 0.105123346663 0.000446414849 0.000065366293 -0.008923376227 0.004277077143
0.043000000000 -0.707069653705 -0.217608299887 -0.175380125307 0.115474151621 0.000858179301 -0.000072258415 -0.008873739536 0.004261982313
0.044000000000 -0.721269902692 -0.188879666187 -0.167777844867 0.125858671993 0.000453850043 -0.000059412035 -0.008810477403 0.004343566795
0.045000000000 -0.739766116703 -0.156183875006 -0.158359541311 0.134666553740 0.000482563905 -0.000059411807 -0.008774985765 0.004445753686
0.046000000000 -0.748064325967 -0.126240040186 -0.149482617553 0.142893923509 0.000441689728 -0.000068558655 -0.008710234474 0.004430699581
0.047000000000 -0.755314250676 -0.101219510921 -0.141111623187 0.149997935109 0.000496987289 -0.000231587292 -0.008648676179 0.004527961599
0.048000000000 -0.752506424523 -0.071321664150 -0.130148015764 0.156892003891 0.000439613183 -0.000125818419 -0.008560219910 0.004564896447
0.049000000000 -0.752733247130 -0.045171593366 -0.122110160163 0.159853106111 0.000488590373 -0.000152699485 -0.008522187683 0.004594620341
0.050000000000 -0.749982563567 -0.024562302206 -0.111579722627 0.162865766961 0.000432258351 -0.000138113365 -0.008448158932 0.004623119290
0.051000000000 -0.743177821280 0.001388897505 -0.102041261193 0.166846836837 0.000464455523 -0.000159898579 -0.008413503035 0.004685244413
0.052000000000 -0.738142890215 0.019878228825 -0.093835319295 0.168151051128 0.000443132903 -0.000201992930 -0.008352758107 0.004738864800
0.053000000000 -0.726948520289 0.038462940073 -0.084634380719 0.169439427569 0.000443051417 -0.000208361242 -0.008294987944 0.004792103949
0.054000000000 -0.726121569702 0.059754458160 -0.077121361305 0.171913175894 0.000434203781 -0.000254623650 -0.008207126000 0.004809909857
0.055000000000 -0.722261312026 0.078494615318 -0.069861211317 0.171558500978 0.000421237651 -0.000382340024 -0.008191758916 0.004850287636
0.056000000000 -0.710256142957 0.086905148654 -0.062102260896 0.171828889567 0.000374326375 -0.000289584289 -0.008114935948 0.004904803005
0.057000000000 -0.702999096466 0.109510878374 -0.054116386537 0.172442911997 0.000388278101 -0.000299925768 -0.008082403773 0.004947939061
0.058000000000 -0.693999130533 0.122496886400 -0.047653485695 0.170844389661 0.000382029476 -0.000310886993 -0.008057229665 0.004947901327
0.059000000000 -0.683898182186 0.132862880987 -0.040487285595 0.170467522368 0.000376260077 -0.000302746552 -0.007922902945 0.005024338570
0.060000000000 -0.679972917889 0.144095556557 -0.034006042917 0.169180321665 0.000373797017 -0.000323587168 -0.007751601861 0.005005925355
0.061000000000 -0.671231774832 0.158634432285 -0.027035463530 0.169918793875 0.000357558006 -0.000331184181 -0.007860020075 0.005303139696
0.062000000000 -0.761327050821 0.183880842422 -0.018656814711 0.187554924919 0.000367694870 -0.000347910208 -0.010419477274 0.008050425775
0.063000000000 -0.661430613025 0.170756292770 -0.017631854509 0.166745327245 0.000361424287 -0.000351021873 -0.007505829011 0.005442607929
0.064000000000 -0.655765614786 0.179715769460 -0.014970706901 0.166110186749 0.000408411433 -0.000427952671 -0.007608079989 0.005122414004
0.065000000000 -0.648881753500 0.193085829074 -0.009608432271 0.166165407030 0.000309899321 -0.000400694002 -0.007522557005 0.005269729468
0.066000000000 -0.649021720928 0.202544673558 -0.004992550435 0.165968553211 0.000583905735 -0.000129854603 -0.007487989207 0.005271485997
0.067000000000 -0.645373686242 0.211263468414 -0.000765988145 0.164238046323 0.000242163963 -0.000480031101 -0.007339534183 0.005286637106
0.068000000000 -0.640158073903 0.226121368982 0.004378540237 0.164246781145 0.000270612090 -0.000426081198 -0.007327732427 0.005342753925
0.069000000000 -0.633518949832 0.236781394381 0.008572930732 0.162953907749 0.000256937668 -0.000422742282 -0.007284059486 0.005350269863
0.070000000000 -0.628134174475 0.246369948500 0.014534682821 0.161630932467 0.000236758780 -0.000426213142 -0.007155455466 0.005359353187
0.071000000000 -0.623172251710 0.256181537113 0.019150467410 0.160285547744 0.000218642555 -0.000471706704 -0.007130146454 0.005434036000
0.072000000000 -0.616168522299 0.272639742462 0.023305286486 0.159294938071 0.000209719069 -0.000460216153 -0.007087262292 0.005463927414
0.073000000000 -0.609216193903 0.277827772711 0.027088381495 0.157513438900 0.000146034186 -0.000496037757 -0.006971383708 0.005439327752
0.074000000000 -0.596061529512 0.295582331567 0.031937459611 0.155529420360 0.000194422538 -0.000452847138 -0.006959684628 0.005465716189
0.075000000000 -0.597120779502 0.302826038319 0.036268409309 0.154226655040 0.000152208546 -0.000488377920 -0.006905678136 0.005475397906
0.076000000000 -0.581231254941 0.313530312576 0.040046879144 0.151999568428 0.000158990175 -0.000498055953 -0.006837133877 0.005482577801
0.077000000000 -0.585621579242 0.320910426912 0.043973101138 0.150580984678 0.000140284094 -0.000480963824 -0.006836312692 0.005575747471
0.078000000000 -0.582738586575 0.324957112480 0.046987971526 0.148226153253 0.000104463903 -0.000507211473 -0.006735411887 0.005501837125
0.079000000000 -0.570425240084 0.339191757553 0.051775371344 0.146726607725 0.000092546088 -0.000500199409 -0.006648453851 0.005496717007
0.080000000000 -0.565573089157 0.346236615650 0.056390118132 0.144814014176 0.000083907900 -0.000481828342 -0.006616974947 0.005510705689
0.081000000000 -0.555655148286 0.359892671483 0.058631824905 0.142793407633 0.000061594636 -0.000493470933 -0.006593157259 0.005577922322
0.082000000000 -0.553286546701 0.369364169506 0.062102047188 0.139845857442 -0.000059542315 -0.000531919220 -0.006571008851 0.005536688351
0.083000000000 -0.542565282146 0.375373862948 0.066495277938 0.138498925860 0.000041178151 -0.000491338831 -0.006471546491 0.005561726755
0.084000000000 -0.531612608557 0.383632172437 0.069388787511 0.136183114996 0.000028736971 -0.000489754959 -0.006410687637 0.005581339927
0.085000000000 -0.530329621840 0.392477283875 0.072825595514 0.132999701756 0.000003039706 -0.000508473074 -0.006409737827 0.005594426387
0.086000000000 -0.520822940970 0.403814290975 0.075952391645 0.131228837760 -0.000016020830 -0.000460061874 -0.006339467047 0.005571025757
0.087000000000 -0.529981693132 0.399089430680 0.079476425022 0.129184988214 -0.000034115927 -0.000495201127 -0.006263463560 0.005612439179
0.088000000000 -0.516787483680 0.408762017562 0.081442984507 0.125959474161 -0.000045954348 -0.000479345974 -0.006273264318 0.005640359502
0.089000000000 -0.507238588047 0.424238246237 0.084963475688 0.122439818176 -0.000054143867 -0.000483772698 -0.006206891748 0.005598642976
0.090000000000 -0.503069228687 0.430548474138 0.088616744905 0.120338740762 -0.000069533472 -0.000513182880 -0.006127669205 0.005574230356
0.091000000000 -0.499394701648 0.434777478648 0.090330057304 0.117875216822 -0.000106241930 -0.000490339710 -0.006092232055 0.005658599834
0.092000000000 -0.474971406074 0.445337312877 0.092435856195 0.113309214381 -0.000066357142 -0.000476392618 -0.006125139527 0.005609011562
0.093000000000 -0.478445740228 0.461034530655 0.097823048528 0.112984735097 -0.000118497367 -0.000527391213 -0.006208941962 0.005524437991
0.094000000000 -0.470710951752 0.459687216123 0.098005944864 0.108667187893 -0.000137129271 -0.000486046158 -0.005984242119 0.005586960115
0.095000000000 -0.462383257741 0.465750450965 0.100088635325 0.105372392579 -0.000112669831 -0.000454438947 -0.005890696335 0.005684182374
0.096000000000 -0.450596221972 0.469698754482 0.102195077632 0.102467550775 -0.000154100724 -0.000481379237 -0.005878626600 0.005680404303
0.097000000000 -0.445510919675 0.475302076615 0.104475972625 0.099534646175 -0.000157835384 -0.000475179241 -0.005865510215 0.005708266892
0.098000000000 -0.438788686753 0.480195225582 0.105959472968 0.096536601650 -0.000186741325 -0.000440715660 -0.005770702942 0.005627417706
0.099000000000 -0.443190491135 0.485170656641 0.108226026160 0.093394934118 -0.000198604077 -0.000460092581 -0.005783612205 0.005699699300
0.100000000000 -0.419513120642 0.498018888498 0.109532602359 0.089205883814 -0.000181233357 -0.000469260358 -0.005765753696 0.005688580283
0.101000000000 -0.413996965266 0.506110166109 0.112423404503 0.086519633563 -0.000196254074 -0.000431244405 -0.005657768428 0.005631869989
0.102000000000 -0.408594588881 0.499922208403 0.113013208972 0.084498272214 -0.000239603414 -0.000442206874 -0.005623894538 0.005738586372
0.103000000000 -0.399386516288 0.508355354977 0.115635981319 0.079115813064 -0.000304232720 -0.000466242240 -0.005687426467 0.005664131398
0.104000000000 -0.396858223946 0.503634761487 0.116023604240 0.076723129199 -0.000232926299 -0.000406595600 -0.005527316680 0.005633142776
0.105000000000 -0.373097966472 0.522515848034 0.116653465114 0.073118859735 -0.000270505831 -0.000423068815 -0.005556417886 0.005707640144
0.106000000000 -0.371751037317 0.526821402282 0.118234298984 0.069147939167 -0.000245684824 -0.000507024165 -0.005496501032 0.005698374929
0.107000000000 -0.365144898630 0.528853373814 0.119621227375 0.066619398049 -0.000283979029 -0.000410504855 -0.005451359758 0.005735973514
0.108000000000 -0.363145963106 0.546048497696 0.119857207949 0.062605857290 -0.000295261208 -0.000371420745 -0.005444054422 0.005712353525
0.109000000000 -0.344689528927 0.541377557844 0.121242940368 0.059589956444 -0.000303851471 -0.000387765643 -0.005430754941 0.005716607795
0.110000000000 -0.339339491436 0.540178583215 0.120885255348 0.056541990961 -0.000183604168 -0.000496487089 -0.005320859791 0.005745053609
0.111000000000 -0.330786358238 0.557610793376 0.122119501259 0.052341861536 -0.000292068459 -0.000369442800 -0.005392875555 0.005769707291
0.112000000000 -0.324289445432 0.554407490390 0.122690484517 0.049041986559 -0.000323628916 -0.000438153730 -0.005341693091 0.005674988930
0.113000000000 -0.327729063943 0.558497841119 0.122763263722 0.045502320722 -0.000357532870 -0.000357068783 -0.005224772857 0.005658159908
0.114000000000 -0.310703938443 0.565555549657 0.123330794198 0.043771668482 -0.000336798785 -0.000321714507 -0.005211992947 0.005759666392
0.115000000000 -0.307082592093 0.568440031336 0.123168344917 0.039944997784 -0.000339551188 -0.000329988550 -0.005226369679 0.005834852427
0.116000000000 -0.297719122092 0.573040351788 0.123527196152 0.036803856728 -0.000359078436 -0.000331075091 -0.005223574881 0.005855748308
0.117000000000 -0.287447981086 0.581328213055 0.124849638800 0.033029520436 -0.000352416830 -0.000305989149 -0.005111772625 0.005638227822
0.118000000000 -0.294434623958 0.569197337290 0.123020717159 0.030606460043 -0.000385494590 -0.000304057855 -0.005142265674 0.005898969293
0.119000000000 -0.279785135799 0.585878390849 0.122963077488 0.027595376004 -0.000369463969 -0.000264115307 -0.005126419530 0.005878654155
0.120000000000 -0.257253172545 0.594414503248 0.122556921693 0.024391983385 -0.000257202834 -0.000331063128 -0.005108997802 0.005629489651
0.121000000000 -0.257315765818 0.596349262159 0.121867666773 0.021906993777 -0.000404951946 -0.000275323444 -0.004957412128 0.005815240497
0.122000000000 -0.245413761252 0.606056637948 0.122670992656 0.019350993571 -0.000423725701 -0.000284255701 -0.004976957363 0.005807825409
0.123000000000 -0.214883249101 0.629805960491 0.123545562924 0.015357663520 -0.000356958519 -0.000316699611 -0.005060011967 0.005299378782
0.124000000000 -0.163506260017 0.653259079349 0.113686163918 0.011622154823 -0.000425875381 -0.000220854307 -0.005162555388 0.005333870330
0.125000000000 -0.213422524167 0.616514741792 0.121025744563 0.011313879088 -0.000392130105 -0.000241974348 -0.004875555911 0.005922854754
0.126000000000 -0.202203228172 0.612754323138 0.120456454003 0.008640433924 -0.000420352786 -0.000206166514 -0.004929384911 0.005831900117
0.127000000000 -0.199130028970 0.624923673884 0.120304000027 0.006135644479 -0.000405748377 -0.000205289282 -0.004865011419 0.005782948941
0.128000000000 -0.190484215811 0.629172159119 0.119587130601 0.003586664600 -0.000406702221 -0.000219246453 -0.004930034961 0.005856492419
0.129000000000 -0.185254116116 0.633437295979 0.119468701202 0.000622978792 -0.000423336653 -0.000193821808 -0.004913091596 0.005904427712
0.130000000000 -0.168680268787 0.632925977211 0.119006498353 -0.001712371418 -0.000428969250 -0.000179063653 -0.004893070407 0.005755693497
0.131000000000 -0.162544582152 0.639782745755 0.118761296922 -0.004049314266 -0.000457038417 -0.000198161546 -0.004695141942 0.005795432674
0.132000000000 -0.144989670019 0.650877945461 0.118830963744 -0.006375959496 -0.000432839123 -0.000133232601 -0.004851992926 0.005886276012
0.133000000000 -0.147219258994 0.645537271291 0.117785710545 -0.008909195760 -0.000445797936 -0.000264823924 -0.004717130576 0.005812853352
0.134000000000 -0.135999294570 0.644952022110 0.118492580932 -0.011643616900 -0.000427604367 -0.000125735104 -0.004679369284 0.005931958551
0.135000000000 -0.152292826645 0.645541044495 0.116196252115 -0.013505684131 -0.000446549704 -0.000122248399 -0.004632405008 0.005921415202
0.136000000000 -0.127609579630 0.660031336172 0.115879414120 -0.015513004055 -0.000430305801 -0.000129576675 -0.004734512573 0.006020521963
0.137000000000 -0.105092975292 0.650192678592 0.114249903229 -0.018051121330 -0.000438757710 -0.000091696670 -0.004725031487 0.005859167555
0.138000000000 -0.099900838351 0.659071807428 0.114144521575 -0.020405886162 -0.000490292111 -0.000057059656 -0.004695701026 0.005888617938
0.139000000000 -0.094225893065 0.655746821099 0.113572401431 -0.022397666038 -0.000466861475 -0.000091930488 -0.004616398207 0.005957902608
0.140000000000 -0.086664887358 0.655461756809 0.112866873987 -0.024560522297 -0.000487024473 -0.000049086739 -0.004586148405 0.006019166547
0.141000000000 -0.078681889793 0.669450336142 0.112893606693 -0.026518591144 -0.000449442550 -0.000048307338 -0.004656305617 0.006054350382
0.142000000000 -0.070850165854 0.660553158277 0.111407717795 -0.028825695579 -0.000490110482 -0.000035548664 -0.004660671100 0.006022602814
0.143000000000 -0.067110891328 0.662132281925 0.110241357695 -0.030858974013 -0.000422475139 -0.000015317042 -0.004512235070 0.006081860041
