# GHZ S RI R 50.000000000000
0.001000000000 1.042965714903 -0.281119822043 -0.000053610525 0.000231199057 0.001842747789 0.000023849785 -0.009137452355 0.000542586987
0.002000000000 0.907158297989 -0.516719238507 0.000852716523 0.001057204221 0.000506212445 0.000521913535 -0.009347547088 0.000338258849
0.003000000000 0.715150389341 -0.667732016873 0.003855286054 0.001779569544 -0.000180328692 -0.000046091616 -0.009399011051 0.000300475450
0.004000000000 0.524891732648 -0.728179683007 0.008665770213 0.001136829010 0.000038092463 0.000191189770 -0.009597799913 0.000241382638
0.005000000000 0.355555592919 -0.736363190742 0.014341643418 -0.001672888116 -0.000026362145 0.000097687663 -0.009818971099 0.000296553919
0.006000000000 0.225355059528 -0.703853400591 0.019841817948 -0.007025120409 -0.000105014267 0.000091117375 -0.009922186842 0.000369886087
0.007000000000 0.119277158851 -0.665725371744 0.024284631484 -0.014658702979 -0.000053231077 0.000092046470 -0.010111332435 0.000508181180
0.008000000000 0.036719544984 -0.630589947721 0.027274608801 -0.023833132241 -0.000024307358 0.000079141981 -0.010273399261 0.000694894422
0.009000000000 -0.020473456500 -0.594242146835 0.028115324120 -0.034177234314 -0.000068754417 0.000044149127 -0.010360015956 0.000847926188
0.010000000000 -0.067817176168 -0.563491644038 0.026099116794 -0.045034239953 -0.000082174284 0.000033141759 -0.010363152674 0.001033416487
0.011000000000 -0.111015601317 -0.535206767606 0.022502639473 -0.055699127965 -0.000043796335 0.000057570275 -0.010396593647 0.001255235895
0.012000000000 -0.147374906271 -0.516033370798 0.017411300449 -0.066621927271 -0.000105013227 0.000120460747 -0.010408497705 0.001458676662
0.013000000000 -0.169042447452 -0.495869970716 0.010323883887 -0.076823323483 -0.000440787114 0.000400064038 -0.010469605481 0.001644013899
0.014000000000 -0.191166417130 -0.484160978536 0.000255343356 -0.086259130558 -0.000040435784 0.000125395691 -0.010431002641 0.001857571762
0.015000000000 -0.211217619623 -0.475998302620 -0.012104976757 -0.093479820274 -0.000052283665 0.000158022921 -0.010397592944 0.002023813922
0.016000000000 -0.232018511922 -0.472787896800 -0.025265580682 -0.098309236816 -0.000066247988 0.000184143147 -0.010315854329 0.002212258808
0.017000000000 -0.252361484052 -0.468924488148 -0.038757608402 -0.100564566663 -0.000006307878 0.000170051530 -0.010327808538 0.002352554929
0.018000000000 -0.278798269968 -0.467135715266 -0.051806174198 -0.101163684479 -0.000026295572 0.000159296947 -0.010244404654 0.002503399656
0.019000000000 -0.309781135150 -0.457452216717 -0.064851205113 -0.100312426955 0.000034131781 0.000233215182 -0.010191575893 0.002651695425
0.020000000000 -0.328065464414 -0.454835195212 -0.076618718576 -0.098875720411 0.000030256728 0.000252733819 -0.010164062207 0.002751539099
0.021000000000 -0.351773047978 -0.444451169113 -0.088659419182 -0.095587883804 0.000077157458 0.000222270945 -0.010104809213 0.002882152053
0.022000000000 -0.370150136583 -0.438967467370 -0.100574878988 -0.091831409237 0.000029958331 0.000205800731 -0.010026190724 0.002957556840
0.023000000000 -0.387028844280 -0.431117297773 -0.112190697228 -0.086979101579 0.000103936851 0.000287704915 -0.009927196566 0.003129175709
0.024000000000 -0.408372113031 -0.425898444185 -0.123700682843 -0.080789412190 0.000205665383 0.000143180713 -0.009871436898 0.003177823394
0.025000000000 -0.371728903954 -0.426308776021 -0.144107018225 -0.098803766054 0.000113834468 0.000347036769 -0.009983850210 0.003159004539
0.026000000000 -0.401337854745 -0.428595329689 -0.157446960146 -0.087822206357 0.000198079555 0.000299777372 -0.009900015784 0.003263407794
0.027000000000 -0.424434509818 -0.425881581196 -0.168176828823 -0.074768317666 0.000228072426 0.000253760755 -0.009813219278 0.003380541576
0.028000000000 -0.466081490323 -0.418776112071 -0.178615514796 -0.059316796749 0.000256919222 0.000284041811 -0.009719032117 0.003476678672
0.029000000000 -0.500645030264 -0.402141567464 -0.184175973878 -0.042300344111 0.000339503887 0.000527237777 -0.009621808459 0.003523890555
0.030000000000 -0.526906414064 -0.367263553819 -0.187583547556 -0.025316076766 0.000360688062 0.000281799505 -0.009475320958 0.003808003959
0.031000000000 -0.663761055780 -0.420829426287 -0.213156852559 0.001189845548 0.000277850031 0.000230781700 -0.006194364541 0.002854293544
0.032000000000 -0.563139306811 -0.342966651323 -0.193878276606 0.002432068834 0.000324327842 0.000191141596 -0.009353425843 0.003770585618
0.033000000000 -0.577284234300 -0.310867755955 -0.192944189693 0.015320476171 0.000316962264 0.000211986308 -0.009304954501 0.003867913880
0.034000000000 -0.572380331330 -0.302656046614 -0.192317011680 0.024729897053 0.000334569028 0.000147962384 -0.009268660004 0.003936010523
0.035000000000 -0.578529534332 -0.286936600373 -0.190641537542 0.034646815364 0.000411795613 0.000175914202 -0.009267809689 0.003907093675
0.036000000000 -0.582207949652 -0.288443103982 -0.191709077143 0.044338389351 0.000376157934 0.000151518614 -0.009190692297 0.003950900630
0.037000000000 -0.591201921357 -0.285115635318 -0.189536883592 0.054983312360 0.000382374051 0.000106152223 -0.009182285844 0.003987327954
0.038000000000 -0.616760242259 -0.285504135898 -0.190421697277 0.064353527578 0.000430338452 0.000046684173 -0.009125176620 0.004081210685
0.039000000000 -0.638990145526 -0.282835323823 -0.188369620896 0.076231449900 0.000450762439 0.000053143894 -0.009073337939 0.004111465560
0.040000000000 -0.659877866721 -0.274538752034 -0.183934305907 0.086655313955 0.000419479461 0.000060076499 -0.009036742905 0.004174917998
0.041000000000 -0.690248276274 -0.266655714850 -0.180451032630 0.097585245752 0.000447938844 -0.000070261522 -0.009014333056 0.004234384893
0.042000000000 -0.707454797436 -0.238853398814 -0.173664591079 0.109759004955 0.000527002380 -0.000025715104 -0.008902720079 0.004242751964
0.043000000000 -0.732644871347 -0.223226858418 -0.168839467359 0.120216745562 -0.000027612505 0.000562136511 -0.008831395843 0.004329943432
0.044000000000 -0.746047388028 -0.195488301668 -0.160449923648 0.129426045223 0.000457466020 -0.000064178457 -0.008791074367 0.004356341508
0.045000000000 -0.763551645117 -0.159862944064 -0.150951624355 0.139048909368 0.000446261991 -0.000070461883 -0.008736156451 0.004468224990
0.046000000000 -0.772398031248 -0.130784939598 -0.142028844932 0.146235635447 0.000361593072 -0.000053506049 -0.008628557357 0.004477026818
0.047000000000 -0.777861351261 -0.106274728312 -0.132836818182 0.153240389778 0.000565626549 -0.000121577379 -0.008627272060 0.004504373455
0.048000000000 -0.775718651730 -0.074540603529 -0.122389551922 0.159539263949 0.000482008167 -0.000142609077 -0.008542955470 0.004619641786
0.049000000000 -0.773166801291 -0.049695334460 -0.113454286530 0.162130778929 0.000459027713 -0.000112918512 -0.008514088146 0.004553746001
0.050000000000 -0.768606045079 -0.026186417413 -0.102787694100 0.165408024486 0.000412299664 -0.000089713812 -0.008410362373 0.004630550090
0.051000000000 -0.763287368375 -0.002969575240 -0.093660909932 0.168379721804 0.000417635927 -0.000209050896 -0.008403804520 0.004693679031
0.052000000000 -0.755152263940 0.015233019180 -0.084954386068 0.169673983266 0.000424141324 -0.000212102274 -0.008327002278 0.004709591623
0.053000000000 -0.745359466625 0.037895439784 -0.076356395807 0.171411278773 0.000429816638 -0.000232280226 -0.008226134381 0.004783247221
0.054000000000 -0.746314953010 0.054817740654 -0.068856683270 0.172665148209 0.000443305681 -0.000262773930 -0.008219375734 0.004796275475
0.055000000000 -0.740450461543 0.073593106354 -0.061324447766 0.172343794972 0.000619217195 -0.000347970141 -0.008166828226 0.004830225663
0.056000000000 -0.726675899922 0.082709943600 -0.053513958950 0.172715884564 0.000382452131 -0.000281840524 -0.008058050872 0.004884481674
0.057000000000 -0.721354397330 0.106095678069 -0.045854978305 0.173149906195 0.000422004962 -0.000313838763 -0.008043623752 0.004951790228
0.058000000000 -0.709507233124 0.117850070951 -0.039057046973 0.171244111185 0.000355101159 -0.000325694887 -0.008019596219 0.004968699680
0.059000000000 -0.698822760843 0.128046676918 -0.032041316418 0.171116644836 0.000368174851 -0.000303587384 -0.007884787115 0.004990868433
0.060000000000 -0.696627823309 0.137565926172 -0.026329825038 0.169318036777 0.000366929482 -0.000386383188 -0.007732315634 0.004796368431
0.061000000000 -0.681430360981 0.145386555863 -0.019546276089 0.167501975889 0.000322962750 -0.000332418162 -0.007873827913 0.004950305192
0.062000000000 -0.739543166508 0.167027030348 -0.014863300350 0.183418553315 0.000415991375 -0.000376704644 -0.008892815447 0.010582386582
0.063000000000 -0.676152322328 0.162406377296 -0.009701194272 0.165642821260 -0.000960197000 -0.000402761623 -0.007469811783 0.005205986675
0.064000000000 -0.672627411928 0.173962203020 -0.006428853594 0.165813249067 0.000291361365 -0.000480258433 -0.007578377478 0.005101273221
0.065000000000 -0.665993393070 0.185918103100 -0.000880353754 0.165785628676 0.000288664827 -0.000411728123 -0.007512359209 0.005263372957
0.066000000000 -0.664432640147 0.197455078933 0.003884463251 0.165464401785 0.000114100069 -0.000332871036 -0.007449486100 0.005246327237
0.067000000000 -0.663915822121 0.204868194757 0.008223079425 0.163461842459 0.000414903675 -0.000152304356 -0.007315394883 0.005234314252
0.068000000000 -0.657087540681 0.219302297932 0.013285108440 0.163072640407 0.000204185441 -0.000453847021 -0.007292228664 0.005317631598
0.069000000000 -0.650154291160 0.230061856283 0.017277809961 0.161806436717 0.000220471711 -0.000444526139 -0.007248696651 0.005315674951
0.070000000000 -0.644298331661 0.240942013328 0.023153092912 0.160228906249 0.000204989069 -0.000459475462 -0.007122772411 0.005334807645
0.071000000000 -0.641773395868 0.250712835121 0.027956256982 0.158848177751 0.000189230327 -0.000468904731 -0.007086244515 0.005369596746
0.072000000000 -0.632954269134 0.264177426263 0.031990937528 0.158100224287 0.000165038178 -0.000455031937 -0.007014027893 0.005413280270
0.073000000000 -0.626504349917 0.273916329874 0.036265048090 0.156023994040 0.000127636094 -0.000540750572 -0.006940396732 0.005399068324
0.074000000000 -0.612510810488 0.279730381698 0.041401606819 0.154484081865 0.000156977309 -0.000489786020 -0.006910265108 0.005412720831
0.075000000000 -0.613364040849 0.295193056252 0.045495717142 0.152678423297 0.000130528593 -0.000467773274 -0.006838834206 0.005434125646
0.076000000000 -0.595608774140 0.309185850370 0.049520999113 0.149983393656 0.000163891344 -0.000463629472 -0.006784205423 0.005401335956
0.077000000000 -0.601872235534 0.311357582429 0.053691806002 0.148416445651 0.000084280468 -0.000470049166 -0.006785578266 0.005478561888
0.078000000000 -0.597561857400 0.317272527559 0.056353579227 0.145730908476 0.000089836157 -0.000489064594 -0.006702415354 0.005494758102
0.079000000000 -0.586533830758 0.332930884220 0.061487609483 0.143772586344 0.000083840330 -0.000494656400 -0.006620847956 0.005437492416
0.080000000000 -0.582001857949 0.340353873173 0.066284378859 0.141568035582 0.000050449812 -0.000486782576 -0.006575910380 0.005430590914
0.081000000000 -0.573263223282 0.351989030069 0.068725498873 0.139489850472 -0.000051578585 -0.000279048625 -0.006576896198 0.005495836699
0.082000000000 -0.568658314107 0.360592129123 0.071874649113 0.136508902575 -0.000086213505 -0.000697327180 -0.006487337541 0.005473193572
0.083000000000 -0.559890910001 0.368119417018 0.076827313777 0.134695583427 0.000026526628 -0.000496384849 -0.006445148614 0.005495603892
0.084000000000 -0.548762697962 0.375748757214 0.079490368344 0.132268037535 0.000007245321 -0.000519607266 -0.006367152735 0.005533815850
0.085000000000 -0.545757691550 0.384491529082 0.082719089913 0.128678521464 -0.000002743329 -0.000510509461 -0.006355544668 0.005526808690
0.086000000000 -0.536993926012 0.395259766596 0.086045666547 0.126458932921 -0.000047986582 -0.000473993242 -0.006302513802 0.005496967759
0.087000000000 -0.546971253222 0.392890462488 0.089786362455 0.124279717443 -0.000085351640 -0.000488702878 -0.006248471056 0.005524273519
0.088000000000 -0.533305577012 0.399093486302 0.091717027884 0.121109709739 -0.000084190667 -0.000507528214 -0.006204790109 0.005543629784
0.089000000000 -0.521712441075 0.414657475242 0.094768727842 0.117062755096 -0.000088662778 -0.000491596041 -0.006173158224 0.005560180830
0.090000000000 -0.517667558739 0.420543567708 0.098484844995 0.114423290113 -0.000093764407 -0.000499182129 -0.006098908639 0.005526538205
0.091000000000 -0.513649337688 0.425583716724 0.100112663973 0.111581393772 -0.000108032294 -0.000482115456 -0.006052713042 0.005615341244
0.092000000000 -0.492611494499 0.431479450123 0.102769877601 0.107398367973 -0.000191895175 -0.001141951365 -0.006047346093 0.005489467276
0.093000000000 -0.500065589598 0.460649304647 0.107648672262 0.105661170302 -0.000148586888 -0.000490075366 -0.005890788929 0.005199272329
0.094000000000 -0.481286532475 0.448482681748 0.107842228569 0.101712945394 -0.000167384951 -0.000483124852 -0.005971128250 0.005534920601
0.095000000000 -0.478818734918 0.452198985503 0.110150256139 0.098155124688 -0.000209097619 -0.000448949455 -0.005879016044 0.005591394279
0.096000000000 -0.466940079742 0.455990251844 0.112160504623 0.094991505994 -0.000169158052 -0.000443736756 -0.005846907813 0.005640928861
0.097000000000 -0.463079679694 0.459317692359 0.114545270043 0.091670236428 -0.000194454682 -0.000470051379 -0.005837244542 0.005608844573
0.098000000000 -0.454927568232 0.466615846676 0.115613122805 0.088150548851 -0.000192220586 -0.000466220388 -0.005799286819 0.005573646560
0.099000000000 -0.459415982935 0.470709477561 0.118085794566 0.084758119217 -0.000213255656 -0.000434648802 -0.005762697853 0.005606605410
0.100000000000 -0.438078218122 0.482614343214 0.119137270637 0.080540147350 -0.000241068294 -0.000473951360 -0.005731956633 0.005595214487
0.101000000000 -0.430771908927 0.489418884641 0.121687500821 0.077396171770 -0.000282208355 -0.000464560392 -0.005644807170 0.005595533023
0.102000000000 -0.426939830831 0.484011325881 0.122463318302 0.074933144770 -0.000260557683 -0.000417838402 -0.005632592813 0.005651823462
0.103000000000 -0.416270434466 0.491174862080 0.125197116179 0.069729876404 -0.000289900024 -0.000441878842 -0.005661421982 0.005555347324
0.104000000000 -0.416586099190 0.487855970857 0.124904247359 0.066989233370 -0.000291373353 -0.000380010994 -0.005487443297 0.005576154968
0.105000000000 -0.392825997127 0.503843110377 0.125382461903 0.062672289409 -0.000292655071 -0.000405042973 -0.005546731753 0.005658906388
0.106000000000 -0.393190284041 0.508959575261 0.127342796484 0.058502941615 -0.000315677062 -0.000326893654 -0.005520764250 0.005585273989
0.107000000000 -0.386793925252 0.510199564255 0.128556583331 0.055922135697 -0.000309078698 -0.000358515698 -0.005432505899 0.005614328791
0.108000000000 -0.387209584387 0.526513978082 0.128181938494 0.051570479112 -0.000350535364 -0.000384534512 -0.005400922789 0.005660041057
0.109000000000 -0.367977418960 0.522211134941 0.129645556480 0.048154117893 -0.000327796508 -0.000362239832 -0.005427121314 0.005612013280
0.110000000000 -0.362517441704 0.520748273402 0.129382287789 0.044891677335 0.000367464111 -0.000647123057 -0.005339356563 0.005588069908
0.111000000000 -0.355845613776 0.538635911372 0.130109100497 0.040933447522 -0.000372287088 -0.000386462937 -0.005305759983 0.005612706159
0.112000000000 -0.350786988675 0.535581954015 0.130024114020 0.037000715619 -0.000368637509 -0.000318415590 -0.005320016503 0.005669736703
0.113000000000 -0.355833586240 0.537707642014 0.130065296227 0.032998636842 -0.000398410747 -0.000319721062 -0.005290818929 0.005683362716
0.114000000000 -0.339214603597 0.545167067547 0.130931890956 0.031159780463 -0.000372362484 -0.000299284061 -0.005278658869 0.005595760204
0.115000000000 -0.334022347299 0.550121018764 0.130541658149 0.027436171590 -0.000381366021 -0.000293035735 -0.005205874060 0.005637850585
0.116000000000 -0.325382810414 0.556299298372 0.130620793922 0.024210991227 -0.000354707341 -0.000224932572 -0.005168384166 0.005664025478
0.117000000000 -0.317431666153 0.561353998354 0.131358808462 0.019574589945 -0.000384748786 -0.000278652067 -0.005169409972 0.005652177432
0.118000000000 -0.322834207960 0.551523100717 0.129596492705 0.017633793478 -0.000391154946 -0.000283334721 -0.005100970149 0.005715694407
0.119000000000 -0.306434043352 0.572505268587 0.129210530429 0.014325988887 -0.000435488001 -0.000234722783 -0.005067487763 0.005713260482
0.120000000000 -0.286712848730 0.578748632649 0.128612137525 0.010583640859 -0.000362771847 -0.000170639994 -0.005048690146 0.005644357321
0.121000000000 -0.287068668815 0.580583816156 0.127516696127 0.008069363691 -0.000421147670 -0.000227920046 -0.005086348654 0.005751534643
0.122000000000 -0.276370411958 0.587422280301 0.128048845419 0.005227011743 -0.000410143078 -0.000222715572 -0.005057556939 0.005711731924
0.123000000000 -0.271459062722 0.631664210534 0.128932601725 0.001138529857 -0.000358381809 -0.000126585604 -0.004827594332 0.005484581200
0.124000000000 -0.202722640546 0.575118655579 0.121478881430 -0.007412947417 -0.000457529184 -0.000187056833 -0.004097113711 0.005217722673
0.125000000000 -0.242413051439 0.600221426508 0.125862044221 -0.003061635744 -0.000426619275 -0.000186990339 -0.004864865283 0.005711598390
0.126000000000 -0.234350437906 0.592798321988 0.125006881825 -0.006003761094 -0.000435071030 -0.000173956790 -0.005000153550 0.005841341820
0.127000000000 -0.227274636527 0.605670340121 0.124583434641 -0.008876537509 -0.000428294970 -0.000156381933 -0.004915487606 0.005608412375
0.128000000000 -0.222143434410 0.614554115891 0.123751622597 -0.011610277881 -0.000433689405 -0.000142508422 -0.004870443785 0.005790834079
0.129000000000 -0.218179963231 0.618027863154 0.123244900488 -0.014819943123 -0.000437315854 -0.000136845663 -0.004839747666 0.005796241455
0.130000000000 -0.202957115006 0.616548665676 0.122702056062 -0.017331720333 -0.000433086032 -0.000103221700 -0.004854291928 0.005785221400
0.131000000000 -0.193938390618 0.618897757413 0.121940040715 -0.019811418461 -0.000432313689 -0.000118073721 -0.004806743459 0.005696295254
0.132000000000 -0.177403443625 0.631323531319 0.121926754074 -0.022531322700 -0.000485056610 -0.000116133841 -0.004835852800 0.005775667847
0.133000000000 -0.181781566012 0.625970153041 0.120831486875 -0.024990764224 -0.000561552027 -0.000042974911 -0.004757461354 0.005810543095
0.134000000000 -0.168295501378 0.623052008399 0.120833272447 -0.028216619848 -0.000491373147 -0.000089529438 -0.004767784667 0.005775837191
0.135000000000 -0.184784225628 0.620259773765 0.118173143021 -0.030134965437 -0.000444676449 -0.000064244055 -0.004717119374 0.005801431422
0.136000000000 -0.158182129381 0.637996682792 0.117539389230 -0.032667282692 -0.000459570265 -0.000076575933 -0.004713229988 0.005835923516
0.137000000000 -0.141249055008 0.630455628626 0.115971161657 -0.035190619705 -0.000475517516 -0.000021707916 -0.004659039938 0.005853412968
0.138000000000 -0.138235775305 0.635722927129 0.115362056923 -0.037751808613 -0.000473866446 -0.000039715169 -0.004689080202 0.005826762965
0.139000000000 -0.130792630051 0.630788608221 0.114422754743 -0.039769788009 -0.000508442821 -0.000013154600 -0.004658544610 0.005869952469
0.140000000000 -0.123225934825 0.631093085071 0.113322785710 -0.042107327989 -0.000510670032 -0.000013187435 -0.004645494214 0.005926432250
0.141000000000 -0.115106717997 0.644185330667 0.112975942253 -0.044423976469 -0.000460259272 0.000032048048 -0.004674314679 0.005930715542
0.142000000000 -0.108107058317 0.635493745316 0.111262474400 -0.046955140041 -0.000502835333 -0.000004380240 -0.004659097402 0.005937515829
0.143000000000 -0.108707423942 0.634205989300 0.109512878250 -0.048754621139 -0.000469950167 0.000038891332 -0.004621746345 0.005972907643
