# GHZ S RI R 50.000000000000
0.001000000000 1.050185717333 -0.281581375796 -0.000069182365 0.000210156525 0.002781930767 -0.001759408138 -0.009194368340 0.000480711537
0.002000000000 0.898135577573 -0.527685059313 0.000889620855 0.000853394730 0.000314006779 0.000230691417 -0.008998423409 -0.000404474409
0.003000000000 0.720036764248 -0.669848705021 0.003649664545 0.001786740226 0.000158241352 0.000117259268 -0.009587203942 0.000307695360
0.004000000000 0.527406441836 -0.735851857896 0.008356437474 0.001268405226 0.000019592980 0.000122654868 -0.009872767175 0.000221248949
0.005000000000 0.355845184185 -0.741643561699 0.013942502011 -0.001462478639 -0.000001532304 0.000077259665 -0.010027341973 0.000306339384
0.006000000000 0.221776770385 -0.712784445892 0.019383643357 -0.006537854597 -0.000025381916 0.000069244198 -0.010208124830 0.000399398329
0.007000000000 0.115945318678 -0.672372465356 0.023904140675 -0.013851205785 0.000069250019 0.000344028539 -0.010358654661 0.000551844892
0.008000000000 0.030635244617 -0.634573777342 0.026939699058 -0.022727424442 -0.000383665182 0.000101595306 -0.010465903232 0.000713295771
0.009000000000 -0.028699818448 -0.594956461428 0.027897442836 -0.032794978901 -0.000084893434 0.000020843289 -0.010569148064 0.000884710030
0.010000000000 -0.076918339888 -0.563519915319 0.026205806276 -0.043399152803 -0.000067450121 0.000048240672 -0.010581630179 0.001123898868
0.011000000000 -0.118823285878 -0.531137895704 0.022981494178 -0.053606692765 -0.000060598564 0.000060141933 -0.010591435728 0.001308714731
0.012000000000 -0.155546823315 -0.511135074127 0.018387368165 -0.064482599969 0.000014147148 0.000095494348 -0.010616453111 0.001529707902
0.013000000000 -0.178899249777 -0.487999361907 0.011597386951 -0.074646887338 0.000019274741 0.000103787978 -0.010641430738 0.001757123742
0.014000000000 -0.200547737174 -0.475164470424 0.002395218310 -0.084367670495 -0.000048231243 0.000145338306 -0.010584342914 0.001918414704
0.015000000000 -0.217566843719 -0.465995441979 -0.009045647546 -0.091698156004 -0.000034033896 0.000197781316 -0.010563665990 0.002089519162
0.016000000000 -0.238643306945 -0.457949872495 -0.021976652900 -0.096515576871 -0.000010496683 0.000114370761 -0.010488495509 0.002272948979
0.017000000000 -0.258778547213 -0.458322266987 -0.034631579336 -0.099414380104 -0.000032956448 0.000192036290 -0.010489584436 0.002434596565
0.018000000000 -0.283533640859 -0.446476272978 -0.047670828576 -0.099993122750 -0.000012289439 0.000112778822 -0.010443508804 0.002573114805
0.019000000000 -0.311134208854 -0.440411476727 -0.060076370316 -0.100101844592 0.000014343340 0.000211581727 -0.010328701364 0.002703085080
0.020000000000 -0.327116863273 -0.434801926917 -0.071384825331 -0.098899875493 0.000082357683 0.000252728400 -0.010311241118 0.002824862069
0.021000000000 -0.348511630316 -0.424840103230 -0.083255830155 -0.096371229272 0.000045038625 0.000255855515 -0.010270369588 0.002967919270
0.022000000000 -0.364149078305 -0.417388592036 -0.094911047224 -0.093210956211 0.000063700513 0.000253150352 -0.010214825945 0.003060302698
0.023000000000 -0.380355723066 -0.410579674448 -0.106611681583 -0.089239686870 0.000077577157 0.000233648865 -0.010107269621 0.003155475250
0.024000000000 -0.399743730359 -0.405209241887 -0.118091986423 -0.083869679188 0.000114782598 0.000268768891 -0.010060808955 0.003242706870
0.025000000000 -0.358529156783 -0.402878120538 -0.136417936746 -0.102932491281 0.000410260043 0.001176749371 -0.010156955958 0.003250374968
0.026000000000 -0.387176523589 -0.404725035994 -0.150244362708 -0.092943456720 0.000181082564 0.000243100167 -0.010063915230 0.003348892200
0.027000000000 -0.409822874799 -0.401594499552 -0.161586404768 -0.081079092536 0.000484248447 0.000310536581 -0.009971466670 0.003451536401
0.028000000000 -0.445968697898 -0.397851039470 -0.172570351732 -0.066722808508 0.000200818669 0.000237108951 -0.009885304530 0.003544504445
0.029000000000 -0.479252732589 -0.382420228889 -0.178999014078 -0.050526160169 0.000250700768 0.000211693070 -0.009795630969 0.003596661380
0.030000000000 -0.505707237072 -0.353439618829 -0.184327470306 -0.034074574607 0.000284369481 0.000223641541 -0.009666835682 0.003816555562
0.031000000000 -0.593561138209 -0.325975315635 -0.188389881541 -0.025790336844 0.000266918022 0.000277601418 -0.008275104766 0.004244415762
0.032000000000 -0.541229029517 -0.326589146507 -0.192127454988 -0.007593629809 0.000303408777 0.000220742225 -0.009511055699 0.003857207744
0.033000000000 -0.554089872532 -0.295665349453 -0.190728050617 0.005405991545 0.000369759719 0.000193835743 -0.009479716262 0.003923196011
0.034000000000 -0.552992186625 -0.286408057536 -0.190857351367 0.015140919312 0.000504545924 -0.000203554125 -0.009431039439 0.003980111878
0.035000000000 -0.556470009260 -0.272820568287 -0.191062007112 0.025069601430 0.000382154801 0.000118906420 -0.009408880392 0.004017100275
0.036000000000 -0.561092617177 -0.274204531448 -0.191713687219 0.034017533017 0.000396258706 0.000131267703 -0.009389615836 0.004007778013
0.037000000000 -0.569040088611 -0.272370039762 -0.190709065831 0.044285455967 0.000410759909 0.000139269864 -0.009314113196 0.004088746292
0.038000000000 -0.590748752063 -0.274563164089 -0.190987152378 0.054990137825 0.000131308101 -0.000037904677 -0.009270806914 0.004126101735
0.039000000000 -0.614343465220 -0.273651964897 -0.189478432079 0.066642005472 0.000434619514 0.000097610040 -0.009214537531 0.004162233631
0.040000000000 -0.635914858098 -0.264500911063 -0.186063869042 0.077782358110 0.000477619911 0.000022231691 -0.009171030627 0.004241254347
0.041000000000 -0.655930853374 -0.256685934904 -0.183975168144 0.088199044551 0.000406581732 0.000014289467 -0.009139536856 0.004299827804
0.042000000000 -0.684679070954 -0.232213585565 -0.178365479031 0.100275952967 0.000459653457 0.000015774336 -0.009052072763 0.004360049465
0.043000000000 -0.708672173251 -0.216397393576 -0.172540285316 0.111326888912 0.000488559774 -0.000022181527 -0.008999856892 0.004362155112
0.044000000000 -0.722136225550 -0.189055919727 -0.165364225000 0.121324592979 0.000450416376 -0.000032172111 -0.008905679665 0.004440814080
0.045000000000 -0.740856439873 -0.156414968975 -0.156505291157 0.129994746723 0.000495474057 -0.000060058378 -0.008906200149 0.004540977758
0.046000000000 -0.748016302664 -0.126730139929 -0.147374408422 0.138529309235 0.000474176370 -0.000052880308 -0.008865963476 0.004486983044
0.047000000000 -0.756727521928 -0.103190409391 -0.139541435569 0.145231860749 0.000280767551 0.000270788178 -0.008742401701 0.004604815203
0.048000000000 -0.755880135183 -0.073109626397 -0.129737677905 0.152562928618 0.000443368877 -0.000116590374 -0.008703536427 0.004676973505
0.049000000000 -0.753225201632 -0.048904305027 -0.120798611336 0.155255151999 0.000473214947 -0.000128384227 -0.008648983203 0.004654269241
0.050000000000 -0.749515120454 -0.024849748687 -0.110359663887 0.159337978403 0.000561934497 -0.000236493276 -0.008548698485 0.004726992634
0.051000000000 -0.745571207142 0.000511563207 -0.101618315801 0.162666573246 0.000469277312 -0.000200261646 -0.008518686208 0.004781345133
0.052000000000 -0.740226841821 0.017977338456 -0.093264164593 0.164442620586 0.000459016568 -0.000196083436 -0.008452102926 0.004816752548
0.053000000000 -0.728337811154 0.041593337226 -0.084557039560 0.166293372252 0.000439217435 -0.000229418369 -0.008354014672 0.004905239795
0.054000000000 -0.728935218230 0.056935327610 -0.077277630109 0.168189341248 0.000418569487 -0.000243969466 -0.008323262265 0.004915580788
0.055000000000 -0.725300963289 0.076617404223 -0.069883778224 0.168276815241 0.000382121074 -0.000221394509 -0.008268241116 0.004949187043
0.056000000000 -0.711777125268 0.084256671949 -0.062246085703 0.168695769587 0.000391648055 -0.000267755150 -0.008181231319 0.004986431313
0.057000000000 -0.705787022419 0.108409552640 -0.054402226843 0.169461593979 0.000416232685 -0.000244076450 -0.008162929614 0.005042458539
0.058000000000 -0.696863385008 0.121914356485 -0.047616143024 0.167953282745 0.000402111424 -0.000315551097 -0.008091766206 0.005036994659
0.059000000000 -0.685789998109 0.133074672629 -0.040849985251 0.168013569979 0.000355026537 -0.000328613614 -0.008003658670 0.005102515735
0.060000000000 -0.678082393167 0.141769163509 -0.033416576542 0.166894752360 0.000395306260 -0.000348499864 -0.008005812126 0.005150550706
0.061000000000 -0.670729852330 0.153424693967 -0.028082283813 0.166181584176 0.000369307801 -0.000317304454 -0.007916775037 0.005216607112
0.062000000000 -0.689962556030 0.101036776174 -0.016255635724 0.185142251259 0.000348421344 -0.000390122414 -0.008568627075 0.005334939487
0.063000000000 -0.663732109144 0.168928264179 -0.018337183160 0.164270938851 0.000420202067 -0.000480984907 -0.007569656616 0.005476571300
0.064000000000 -0.654895271209 0.178197301050 -0.015516816075 0.163598167055 0.000356055242 0.000266355646 -0.007760994973 0.005320281402
0.065000000000 -0.648603510374 0.193440310571 -0.010192235807 0.164167594459 0.000320529904 -0.000394661890 -0.007613789318 0.005401850438
0.066000000000 -0.649476934930 0.199953530879 -0.005537240738 0.164086593805 0.000292892673 -0.000479151711 -0.007539944326 0.005394785688
0.067000000000 -0.647585006966 0.211564158057 -0.001191222495 0.162324473197 0.000284581473 -0.000464918478 -0.007414460388 0.005379271196
0.068000000000 -0.640343100421 0.223514591788 0.003869903323 0.162145818347 0.000269891527 -0.000464371466 -0.007415673317 0.005482861072
0.069000000000 -0.633287065255 0.234382769241 0.007696046968 0.160938123440 0.000242200552 -0.000471325412 -0.007374189556 0.005493769498
0.070000000000 -0.631001824522 0.244172126983 0.013692210791 0.159744846661 0.000246188721 -0.000469721301 -0.007228378159 0.005470188689
0.071000000000 -0.626935745935 0.254695545602 0.018211689315 0.158674974232 0.000167503874 -0.000436703215 -0.007161036552 0.005545939579
0.072000000000 -0.617999709826 0.268649929763 0.022183517695 0.157918208951 0.000229667587 -0.000479412123 -0.007156057240 0.005586778683
0.073000000000 -0.609367700198 0.272514901258 0.026169521304 0.156407039326 0.000209232222 -0.000480437248 -0.007031638297 0.005584342294
0.074000000000 -0.596174499012 0.289762693339 0.031130111436 0.154636698577 0.000212106829 -0.000464556902 -0.007024523077 0.005611098992
0.075000000000 -0.597400481718 0.300275778233 0.035428026048 0.153157910326 0.000174612374 -0.000462724956 -0.006969044163 0.005600770234
0.076000000000 -0.584728222386 0.309723511947 0.039473235315 0.151072241165 0.000378419372 -0.000242322116 -0.006909988006 0.005608486566
0.077000000000 -0.585095333002 0.320149043025 0.043112557562 0.149699059511 0.000152179485 -0.000479050989 -0.006860579973 0.005723474676
0.078000000000 -0.583881794889 0.323162949182 0.046356170944 0.147225178327 0.000132038626 -0.000518875072 -0.006794180555 0.005651991013
0.079000000000 -0.571417535698 0.338092574678 0.051031319308 0.145524394426 0.000109259163 -0.000506366530 -0.006744760086 0.005658295983
0.080000000000 -0.567972829067 0.344177551652 0.056013714791 0.143611274363 0.000077770867 -0.000528344183 -0.006690765674 0.005654178422
0.081000000000 -0.558132428383 0.358230986112 0.058485474991 0.142118496863 0.000067586979 -0.000553424288 -0.006629791280 0.005698055570
0.082000000000 -0.553827277804 0.366903171912 0.061329951056 0.139081358812 -0.000510741197 -0.000077619047 -0.006598868335 0.005699739623
0.083000000000 -0.544444900104 0.374414446843 0.066088175151 0.137355188354 0.000043100366 -0.000496007126 -0.006548452993 0.005728926461
0.084000000000 -0.533411016469 0.382922034743 0.069334705713 0.135425966747 0.000004996922 -0.000520231897 -0.006455572642 0.005725608380
0.085000000000 -0.533073824608 0.387283797934 0.072447785626 0.132527190524 -0.000013246737 -0.000479054488 -0.006409402095 0.005750834276
0.086000000000 -0.521202985654 0.403073819222 0.075299797165 0.130419716558 -0.000001286055 -0.000510966283 -0.006362711977 0.005763472731
0.087000000000 -0.532584717372 0.398058588464 0.079544900612 0.128209890240 -0.000027304300 -0.000519461294 -0.006328736944 0.005772412740
0.088000000000 -0.519002069173 0.406140290512 0.081536811758 0.125658262888 -0.000046386139 -0.000527649875 -0.006276533788 0.005778041259
0.089000000000 -0.508685499126 0.422425021060 0.084450254465 0.121877020014 -0.000039748914 -0.000492128210 -0.006222019629 0.005822890884
0.090000000000 -0.504070123510 0.428809674715 0.088260524768 0.119302838369 -0.000066072917 -0.000479639012 -0.006198410359 0.005787454771
0.091000000000 -0.502133728337 0.432571449245 0.090511808779 0.117382618151 -0.000089530759 -0.000491795997 -0.006092677419 0.005791533938
0.092000000000 -0.475570150565 0.443874699239 0.092474215359 0.112254705624 -0.000095810793 -0.000514137590 -0.006168066298 0.005797837211
0.093000000000 -0.476841735009 0.454532886928 0.096572004347 0.110939466199 -0.000083748077 -0.000538545918 -0.006165038508 0.005915987803
0.094000000000 -0.472784970425 0.457666126821 0.098191928320 0.108066815352 -0.000123982951 -0.000515645832 -0.006056858947 0.005771354002
0.095000000000 -0.463313379678 0.463445469686 0.100082235965 0.104698760708 -0.000113674816 -0.000530484255 -0.005933495112 0.005888218538
0.096000000000 -0.452549195556 0.467912764579 0.102754158640 0.101709341141 -0.000133023460 -0.000480288378 -0.005934315459 0.005878191906
0.097000000000 -0.445735089322 0.473448240398 0.105068804824 0.098890336470 -0.000158668224 -0.000467652815 -0.005910325579 0.005865515349
0.098000000000 -0.439231941269 0.477270776932 0.106166316553 0.095264483497 -0.000172284783 -0.000452520662 -0.005846536979 0.005843917830
0.099000000000 -0.445162931221 0.482922071878 0.108738031150 0.092544516645 -0.000195177371 -0.000470284413 -0.005825140262 0.005871932069
0.100000000000 -0.421133781866 0.495591495969 0.110058806379 0.088547058770 -0.000204038579 -0.000464169094 -0.005787734846 0.005873155684
0.101000000000 -0.417001842040 0.501615402371 0.112275287716 0.085387838394 -0.000223721842 -0.000451309152 -0.005717500357 0.005927509849
0.102000000000 -0.410026008588 0.496904683438 0.113745501880 0.083353570668 -0.000230676344 -0.000459010595 -0.005722743296 0.005908610885
0.103000000000 -0.398594131979 0.506887143171 0.115891052090 0.078900048548 -0.000224626902 -0.000364029850 -0.005659586152 0.005868805255
0.104000000000 -0.398647472687 0.500881871440 0.116116810665 0.075606243376 -0.000269069772 -0.000420212709 -0.005592766168 0.005903275321
0.105000000000 -0.375963222921 0.520140165051 0.117002045391 0.072242335316 -0.000259310116 -0.000438821925 -0.005575752191 0.005928044400
0.106000000000 -0.374102122121 0.523651640920 0.118641728341 0.068343633775 -0.000107624245 -0.000472154607 -0.005533056921 0.005955793191
0.107000000000 -0.366982273188 0.524752879398 0.120296053471 0.065565037041 -0.000286283370 -0.000416061098 -0.005526860867 0.005956007902
0.108000000000 -0.362960085376 0.541775683364 0.120214493709 0.061886678467 -0.000286607621 -0.000417319483 -0.005439350118 0.005944890243
0.109000000000 -0.346237073455 0.546839888851 0.121483410480 0.058759182450 -0.000323880407 -0.000404163045 -0.005452579179 0.005962543461
0.110000000000 -0.341780548017 0.536570431327 0.121693660450 0.055322841501 -0.000327459587 -0.000392355234 -0.005452365257 0.005958898695
0.111000000000 -0.333049242498 0.553573202207 0.122861887280 0.051598579411 -0.000317434087 -0.000375552805 -0.005406153107 0.005961110535
0.112000000000 -0.327923363441 0.551848700949 0.122885224720 0.048211206868 0.000229892202 -0.000212368189 -0.005330130686 0.006006116823
0.113000000000 -0.332287301586 0.552972802395 0.123225207170 0.044352644620 -0.000315461738 -0.000342351034 -0.005295464085 0.006035862494
0.114000000000 -0.313255942007 0.561741552915 0.124022624524 0.042689891924 -0.000356749019 -0.000341941471 -0.005286686466 0.006001928010
0.115000000000 -0.309923135891 0.564940138852 0.123860191271 0.038969263624 -0.000340561193 -0.000330498861 -0.005258510099 0.006043574937
0.116000000000 -0.300862030262 0.570739257796 0.124162315434 0.035888611948 -0.000294958693 -0.000327270438 -0.005227415323 0.006084238976
0.117000000000 -0.290867255117 0.576180074474 0.125387703500 0.031721760552 -0.000365780580 -0.000325375843 -0.005205858200 0.005972457075
0.118000000000 -0.298336024951 0.567464429306 0.123727728783 0.029585737788 -0.000383094026 -0.000297569145 -0.005154201040 0.006146559580
0.119000000000 -0.281203310213 0.586941322597 0.123639054182 0.026533828828 -0.000381168475 -0.000290410342 -0.005164477896 0.006116499147
0.120000000000 -0.259732891376 0.592695842806 0.123211798731 0.023152643046 -0.000389907803 -0.000256339536 -0.005064823034 0.005907756986
0.121000000000 -0.262241574868 0.596332173677 0.122322359815 0.020601223000 -0.000393484060 -0.000282464992 -0.005011126978 0.006201308332
0.122000000000 -0.250469007069 0.602515063175 0.123045154223 0.018062046871 -0.000385370156 -0.000289090912 -0.004994481303 0.006147957868
0.123000000000 -0.225587430765 0.610974710573 0.124626491535 0.013796632142 -0.000484364304 -0.000315805178 -0.005191179325 0.005874586205
0.124000000000 -0.130225927123 0.575218222658 0.121061768685 0.004283596203 -0.000440171917 -0.000221926757 -0.004326001913 0.005496464484
0.125000000000 -0.217754268692 0.613736314232 0.121679254094 0.010158528329 -0.000411306013 -0.000227646425 -0.005009943418 0.006209764126
0.126000000000 -0.204405140930 0.607583354173 0.121143480770 0.007352258397 -0.000415358406 -0.000234508644 -0.005022076355 0.006157496636
0.127000000000 -0.201437904651 0.621302630268 0.120952835340 0.004694697728 -0.000437894397 -0.000215029428 -0.004945084327 0.006106113981
0.128000000000 -0.191714254119 0.627487731185 0.120328399690 0.001951758951 -0.000408147672 -0.000188592113 -0.004979782667 0.006166751819
0.129000000000 -0.190039002762 0.630427650404 0.120103490375 -0.000932079824 -0.000410916251 -0.000181628618 -0.004946446123 0.006252402416
0.130000000000 -0.174103337150 0.630506603657 0.119685142151 -0.003291857895 -0.000351193501 -0.000176228217 -0.004959001238 0.006177170742
0.131000000000 -0.165529555634 0.635164069837 0.119344307098 -0.005688599714 -0.000425537888 -0.000179699036 -0.004806725113 0.006111075773
0.132000000000 -0.149427334754 0.645749432600 0.119331297814 -0.008144441862 -0.000435547974 -0.000165754659 -0.004956748268 0.006222772021
0.133000000000 -0.149165779419 0.641446505904 0.118436533067 -0.010658256907 -0.000353381564 -0.000593473295 -0.004785834990 0.006125398799
0.134000000000 -0.140093742810 0.641892436522 0.119126065628 -0.013519245532 -0.000414611962 -0.000128958038 -0.004731356112 0.006296922534
0.135000000000 -0.154864554265 0.642360941187 0.116759839934 -0.015521312309 -0.000447148710 -0.000118158425 -0.004662858120 0.006244347479
0.136000000000 -0.130883301219 0.655274888736 0.116468498062 -0.017527072426 -0.000455657228 -0.000107872346 -0.004789574798 0.006399147962
0.137000000000 -0.109441901008 0.645079137963 0.114808279721 -0.019951589852 -0.000451254982 -0.000114451103 -0.004861272058 0.006269410069
0.138000000000 -0.101770324200 0.649753939594 0.114464766929 -0.022563781581 -0.000876348075 -0.000805685076 -0.004799580852 0.006228537679
0.139000000000 -0.096770473020 0.652007399111 0.114070362220 -0.024588465770 -0.000477143528 -0.000071290486 -0.004641522442 0.006313185239
0.140000000000 -0.091860487945 0.651707644129 0.113447470331 -0.026645162849 -0.000462839189 -0.000077065735 -0.004658373478 0.006441184592
0.141000000000 -0.081911443560 0.663907814435 0.113278488282 -0.028702065416 -0.000469846482 -0.000055926271 -0.004750211380 0.006436718937
0.142000000000 -0.074093306183 0.655237020677 0.111789351467 -0.031070580350 -0.000482515742 -0.000056989186 -0.004759663320 0.006396818800
0.143000000000 -0.069825617242 0.651870809590 0.110582130485 -0.033061660039 -0.000501626298 -0.000015051942 -0.004647494299 0.006481115383
