Frequency,S11_Magnitude,S11_Phase,S12_Magnitude,S12_Phase,S21_Magnitude,S21_Phase,S22_Magnitude,S22_Phase,
1000000,0.7268291417,-15.00941467,-49.65184882,-32.31095412,-73.10229876,108.2212588,-40.71770662,177.007115,
2000000,0.3546937827,-30.43567781,-68.18674482,36.30361533,-58.18239899,43.80935931,-40.90790564,-177.4263172,
3000000,-0.145060608,-42.93197698,-74.11279531,36.53901276,-47.82187382,26.08465371,-40.36168954,178.1617585,
4000000,-0.8637923355,-54.36972934,-78.11687515,80.92420686,-41.46065247,8.630918369,-40.10904157,178.7162151,
5000000,-1.696288745,-64.36801918,-82.23923563,91.13620764,-37.06566271,-5.988060691,-39.97223197,178.2501348,
6000000,-2.53952571,-72.7169179,-82.64480896,110.130743,-33.7833653,-18.63859178,-39.81443743,177.7594149,
7000000,-3.320541467,-80.21601803,-69.09561348,78.61893406,-31.1732531,-30.09006017,-39.68162466,176.9505189,
8000000,-3.940247427,-87.23608421,-68.02662702,165.1683738,-29.05779385,-40.15233864,-39.58433942,176.1010786,
9000000,-4.500202194,-92.76172273,-81.16830596,166.2054349,-27.31942286,-49.61344991,-39.48887617,175.215106,
10000000,-4.901644797,-97.77262385,-81.626211,144.4274559,-25.90027885,-58.87506833,-39.46022975,173.9372157,
11000000,-5.283761843,-102.6102634,-81.37317864,135.2166867,-24.68287829,-66.7949109,-39.43509659,172.9560378,
12000000,-5.444640522,-106.925869,-80.30616132,81.57312655,-23.47163941,-74.08437246,-39.39116839,171.8007738,
13000000,-5.683977309,-110.1328001,-79.52979942,79.47930614,-22.43618217,-81.16894079,-39.34317486,170.6238657,
14000000,-5.751172714,-112.8826445,-76.29866857,108.3586827,-21.47297982,-88.37379595,-39.36634249,169.726656,
15000000,-5.775955324,-115.0272218,-73.94956309,99.76374507,-20.71073099,-95.63376709,-39.35702544,168.8111854,
16000000,-5.74027934,-117.5245737,-78.79727177,95.24378343,-20.08852377,-102.8275741,-39.38642401,167.7725731,
17000000,-5.57480038,-119.4500013,-74.20627301,99.73799533,-19.55359703,-109.2060801,-39.35696879,166.9331986,
18000000,-5.532572475,-122.4174868,-78.90418312,96.21894791,-19.11115355,-115.4890552,-39.36712453,166.1589093,
19000000,-5.364552357,-125.2397739,-73.47052404,86.12179458,-18.65518497,-120.97018,-39.43138044,165.3342544,
20000000,-5.286229674,-126.9554376,-71.50860591,71.95054344,-18.2748526,-125.8213303,-39.41947922,164.6791903,
21000000,-5.200657287,-129.3632619,-71.70757212,80.01642114,-17.89977343,-130.8239816,-39.41995429,163.8818262,
22000000,-5.131194654,-131.1029466,-71.66579667,75.8758302,-17.52115338,-135.5177778,-39.44208514,163.3220885,
23000000,-5.041142648,-132.8116257,-72.17455664,71.63256721,-17.1377326,-140.0688637,-39.5034045,162.6617102,
24000000,-4.894689576,-134.6109761,-70.68482321,66.87422165,-16.78197821,-144.6173882,-39.51810671,162.1353109,
25000000,-5.363250543,-131.6665137,-58.08813895,70.77948233,-15.34543515,-142.9640661,-39.44129957,162.2545656,
26000000,-5.03474385,-133.7305352,-70.36738431,53.31799094,-15.05680424,-148.2584322,-39.48857249,161.5944991,
27000000,-4.82496732,-135.5810019,-64.80264482,32.67105109,-14.85664991,-153.3539088,-39.53336102,160.9071501,
28000000,-4.471207351,-138.2636785,-70.15253154,49.73717527,-14.65561897,-158.8614444,-39.57492384,160.2740448,
29000000,-4.248948485,-141.4118458,-69.67926138,40.1779263,-14.61004995,-164.2371867,-39.6301057,159.8382818,
30000000,-4.194634712,-145.0502373,-68.831216,38.18317628,-14.54226757,-169.5265986,-39.66520721,158.4554378,
31000000,-3.385898798,-151.2250369,-68.28836073,46.12399099,-14.41820956,-172.2047368,-40.63021931,152.8460846,
32000000,-3.983861137,-148.8923225,-68.5144665,36.03741314,-14.32143241,-177.7366244,-39.77413975,157.9249902,
33000000,-4.040261123,-151.9153781,-67.58716205,27.66446409,-14.38822096,178.3764444,-39.77751127,157.5177027,
34000000,-4.113586738,-152.6192659,-65.2870701,-21.97113078,-14.35857582,175.4641635,-39.79697585,157.1191556,
35000000,-4.155670748,-153.8826712,-67.95388921,17.28338686,-14.3023791,172.5248179,-39.80202154,156.8800501,
36000000,-4.089208609,-153.9553581,-67.58821799,18.32836513,-14.21230975,169.938205,-39.82019054,156.8857138,
37000000,-4.00125591,-154.4219743,-67.25565496,18.72944314,-14.16448158,166.9267742,-39.85183239,156.2992962,
38000000,-3.722563291,-155.0723394,-77.28656097,-16.10182901,-14.0340282,163.9375227,-39.87278421,156.0078787,
39000000,-3.445702521,-155.9899888,-67.02410524,12.65787701,-13.942293,160.6225699,-39.90413607,155.6911664,
40000000,-3.239025245,-157.4157365,-66.40895226,2.665013143,-13.90727338,157.3130643,-39.90991097,155.1812462,
41000000,-3.044019258,-158.6280642,-67.81168168,2.012853179,-13.80636009,154.3865992,-39.91316158,154.8046799,
42000000,-2.817403715,-161.2652819,-66.74627763,1.965498795,-13.78102113,150.6555787,-39.9589345,154.281599,
43000000,-2.60392786,-163.0196277,-66.21270285,-2.599550323,-13.75059985,147.1689785,-39.99887874,154.1409212,
44000000,-2.53971068,-165.3291754,-66.90561567,-4.085555115,-13.76079274,143.7332101,-40.04224626,153.4968776,
45000000,-2.415923732,-168.0783772,-66.03623571,-6.911331608,-13.83077919,140.2866634,-40.0025683,152.9844651,
46000000,-2.398875767,-170.3841652,-66.42752268,-6.363351622,-13.88174918,136.7720135,-40.05514244,153.1564453,
47000000,-2.341193386,-172.2348122,-68.17709048,43.96345269,-13.91858095,133.8552509,-40.10399315,152.2232375,
48000000,-2.39050202,-174.4754685,-66.77430771,-14.73321132,-13.96776441,130.3774389,-40.10436162,151.7479839,
49000000,-2.443234142,-176.2851974,-66.19038628,-15.17909,-14.12328688,127.8852386,-40.1562063,151.7140139,
50000000,-2.499620814,-178.1010865,-64.29808083,-22.82406411,-14.25183696,124.7070034,-40.20339173,151.0596525,
51000000,-2.550215398,179.9606873,-65.84482583,-23.11011333,-14.34309215,121.9931497,-40.20318371,150.6954918,
52000000,-2.610142604,178.6087735,-66.03547957,-23.13128232,-14.46850557,119.5598801,-40.23929174,150.3217009,
53000000,-2.739202557,176.7315481,-66.09869359,-27.57961322,-14.58378594,116.9524767,-40.2756138,149.579756,
54000000,-2.719806448,175.533836,-66.29447098,-30.23640833,-14.65219149,114.67727,-40.29468894,149.434605,
55000000,-2.741441161,173.9699048,-67.09894027,-30.08727945,-14.78851072,112.5526521,-40.32179442,149.0961898,
56000000,-2.892685698,173.2490238,-66.47661127,-34.35895819,-14.90356176,110.2532677,-40.37171308,148.6378414,
57000000,-2.925252496,171.2675629,-66.32974192,-30.38711423,-14.9925823,107.7981797,-40.35929935,148.2952727,
58000000,-3.006118085,170.0766852,-65.8291695,-38.12253478,-15.16047703,105.8284713,-40.41684651,148.0983986,
59000000,-3.11565236,169.018469,-66.30727076,-42.78743729,-15.24368307,103.6654535,-40.45303075,147.4815562,
60000000,-3.188544739,168.1910643,-65.56394103,-41.39922653,-15.3804362,101.3223523,-40.42770189,147.244739,
61000000,-3.24755535,167.1156618,-66.25122725,-40.66874247,-15.46606222,99.59154389,-40.46296752,146.6178813,
62000000,-3.13134349,171.6689314,-65.62895127,-48.23171235,-14.61653791,95.01774714,-39.91898492,148.093066,
63000000,-3.287557952,165.7206657,-63.89428985,-48.85861496,-15.63500331,96.36942614,-40.59022897,144.1146356,
64000000,-3.366363779,164.7783143,-67.03947936,36.79920482,-15.68553698,95.41813172,-40.52868148,145.5687631,
65000000,-3.390343353,163.3932499,-65.87543775,-50.91776321,-15.67754376,93.55261054,-40.59733725,144.6449653,
66000000,-3.355444694,162.8880462,-65.01176206,-58.56366669,-15.69359515,91.93276104,-40.65731518,144.4165033,
67000000,-3.333643507,161.9079339,-65.27045011,-58.52876271,-15.79208608,90.42045907,-40.76182234,144.0387088,
68000000,-3.372440009,160.7582331,-65.39880836,-59.83495363,-15.7994118,88.63279212,-40.70305378,143.5222162,
69000000,-3.410467867,159.6902301,-65.51589362,-62.80267414,-15.85690147,87.26220645,-40.72834127,143.3138979,
70000000,-3.393400259,158.8455826,-65.50912121,-62.34022121,-15.8996731,85.10098041,-40.85273949,142.8828133,
71000000,-3.392120472,157.8903243,-66.600177,-69.01495681,-15.93299534,83.45260948,-40.85985517,142.2436345,
72000000,-3.428519161,156.5049897,-65.48853685,-64.4027426,-15.94649043,82.00371422,-40.83960797,142.0206188,
73000000,-3.510612841,155.9053627,-65.61302516,-66.4666941,-15.99496448,80.50143991,-40.93509718,141.5443208,
74000000,-3.571533385,154.0785466,-65.8368838,-65.45956651,-16.04121829,78.61784472,-40.92436252,141.3825884,
75000000,-3.496411044,153.3141905,-66.11536682,-69.32566375,-16.07083484,76.97558961,-40.97256481,141.2124116,
76000000,-3.586887825,152.0903689,-66.9481802,-32.63360369,-16.12949227,75.35672694,-41.01258062,140.9355147,
77000000,-3.518040189,151.313661,-65.97483369,-72.37657869,-16.14957047,73.93387216,-40.97857156,140.1632703,
78000000,-3.512963569,151.0366457,-65.42624511,-75.72291411,-16.22982627,72.52256888,-41.07316204,140.2433672,
79000000,-3.557341886,149.3883245,-65.71307095,-77.82390861,-16.23759936,70.67566397,-41.10652898,140.0061307,
80000000,-3.555108722,148.7851686,-65.44856747,-81.62634471,-16.24121863,68.69237489,-41.15000396,139.7997849,
81000000,-3.567040462,147.3060824,-65.07454099,-83.03722794,-16.26752874,67.63155367,-41.16781773,139.3221839,
82000000,-3.552241595,146.4760588,-65.73681877,-171.3586903,-16.36294267,66.20422039,-41.19003042,139.1813506,
83000000,-3.599098754,145.4837187,-66.05757267,-85.03377767,-16.33874246,64.30555911,-41.20887856,138.8188815,
84000000,-3.653649643,144.3264072,-65.67565981,-89.44968049,-16.35496022,62.88868968,-41.28094411,138.4293813,
85000000,-3.623537499,144.0011964,-66.38898229,-91.58393,-16.41834012,61.33617998,-41.29874026,138.0999669,
86000000,-3.623891492,142.2833236,-65.83212763,-90.1442079,-16.44369168,59.99936122,-41.32522367,137.8290821,
87000000,-3.544823132,143.2252323,-65.67695383,-93.00885326,-16.42729156,58.18341099,-41.34459816,137.6321963,
88000000,-3.621970876,141.9553703,-65.51964859,-95.02400385,-16.49011004,57.02137042,-41.37984147,137.3680017,
89000000,-3.593160368,140.2929207,-66.13019473,-94.61772317,-16.5785667,55.28138204,-41.38946228,136.8978994,
90000000,-3.585611634,139.6123705,-66.30006797,-97.84344404,-16.57121796,53.50587562,-41.43180976,136.9637131,
91000000,-3.572819616,139.2561989,-66.02270138,-100.3176239,-16.5814886,52.36477366,-41.50810488,136.4515527,
92000000,-3.734628415,136.97434,-65.63015407,-100.5561247,-16.74636255,50.51867143,-41.4472345,136.7721854,
93000000,-3.625321003,136.3721208,-65.27177101,-98.83914152,-16.64868852,48.96066442,-41.36637808,136.1809869,
94000000,-3.635282401,135.9309137,-65.50888328,-103.5196802,-16.71210938,47.74101183,-41.54938769,136.3827154,
95000000,-3.670965035,134.9918337,-65.31157342,-102.0947177,-16.7823003,46.29144106,-41.55662754,135.2194389,
96000000,-3.728973302,134.0437563,-66.04897073,-105.4809122,-16.79787075,44.70721859,-41.56336008,135.2722215,
97000000,-3.738311192,133.2730695,-66.12833143,-108.7413739,-16.815453,43.26488808,-41.59039846,135.2180247,
98000000,-3.760150047,132.6233408,-66.29936804,-110.8429535,-16.91507969,41.90206162,-41.65367159,135.0128366,
99000000,-3.651362056,132.670206,-65.86261744,-112.5394208,-16.90615854,40.40036619,-41.64868695,134.7708009,
100000000,-3.736959864,130.3565493,-65.89923787,-113.7292402,-16.99980425,38.81817841,-41.67543255,134.5802923,
101000000,-3.710917108,129.7373524,-65.95625762,-116.3684195,-17.0121626,37.25379127,-41.68609024,133.9668233,
102000000,-3.81914658,129.5280952,-65.78556821,-116.6818721,-17.01455689,36.23424542,-41.69658549,134.0844985,
103000000,-3.811031298,128.1799797,-67.37608299,-121.6769209,-17.06505881,34.24751369,-41.77349556,133.9603011,
104000000,-3.874254425,128.5159733,-66.03840311,-122.6321679,-17.16711942,33.06904813,-41.79616629,133.4528118,
105000000,-3.852143906,125.8598308,-65.85350124,-120.5798318,-17.23344446,31.69305136,-41.78940505,133.2459225,
106000000,-3.82828242,125.5424039,-66.29833169,-102.8407676,-17.27074893,29.94411758,-41.79889276,132.8927324,
107000000,-3.871721088,124.9667499,-65.93349122,-124.5310873,-17.26537704,28.5917383,-41.80323025,132.859692,
108000000,-3.713445311,123.819923,-65.91252277,-124.4805892,-17.37988518,27.23950655,-41.87566304,132.457336,
109000000,-3.778751512,122.3403495,-65.71466284,-128.707317,-17.39669531,25.81215849,-41.85202928,132.4420436,
110000000,-3.928434334,122.4960109,-65.83072702,-129.8483675,-17.47876328,24.44689733,-41.85507613,132.4583719,
111000000,-3.794838817,121.0326056,-66.16535964,-130.2059948,-17.50619235,22.78105265,-41.88684239,132.2050008,
112000000,-3.850282424,120.7199222,-70.08992579,-42.73091378,-17.58824748,21.421424,-41.90549833,131.5874648,
113000000,-3.80704424,121.0021103,-66.64100329,-132.6592338,-17.65695138,19.79540632,-41.90618242,131.2615599,
114000000,-3.833324754,119.1462824,-66.1226531,-136.2141041,-17.643696,18.99400188,-41.94008757,131.3746113,
115000000,-3.817324981,118.7489369,-66.47409585,-135.8590676,-17.73143705,17.46477397,-41.92622439,131.026506,
116000000,-3.806340038,117.7957074,-67.11959765,-132.0273568,-17.7717242,16.1217226,-41.91493059,130.6682896,
117000000,-3.802940383,116.7855598,-66.20395616,-138.3456813,-17.7654699,14.19733473,-42.02239547,131.0768493,
118000000,-3.861367679,117.7324849,-66.28362516,-142.1616457,-17.90917706,13.44803344,-41.9147856,129.9815342,
119000000,-3.730692521,115.599059,-66.38975964,-142.6964069,-17.96133616,12.11236595,-41.93254497,130.1761397,
120000000,-3.780456602,113.6641334,-66.62065666,-146.6776292,-18.03625035,10.64230839,-42.17856984,130.6070602,
121000000,-3.722423234,113.7378552,-66.29642045,-144.3270879,-18.12841245,9.559897163,-41.96764058,128.9408375,
122000000,-3.708360355,112.5729394,-66.34355337,-143.1240801,-18.10612236,8.35092249,-42.02440053,129.0897356,
123000000,-3.724500315,110.2654308,-64.75809467,-146.8956785,-18.03489185,6.317140811,-42.11413762,131.4659778,
124000000,-4.586269754,102.7563799,-66.14388718,-153.2435809,-18.33442576,2.026483145,-43.10465487,128.204576,
125000000,-3.725428027,109.5347368,-66.55616508,-151.0366933,-18.2655042,4.772335015,-41.96128566,128.8960624,
126000000,-3.862226467,108.5941339,-66.42986319,-150.5512109,-18.3180319,3.473049539,-41.99722828,129.2008082,
127000000,-3.69985066,107.9636615,-66.23442828,-153.8465075,-18.341141,2.222778877,-42.09444018,129.0025542,
128000000,-3.660316785,106.989311,-66.94323016,-155.1998367,-18.39149472,0.929271437,-42.01853239,128.921609,
129000000,-3.629569579,106.7751486,-66.94990353,-156.1541473,-18.40862587,-0.4446429311,-41.96817032,128.3484825,
130000000,-3.687079061,105.4365568,-68.11371664,-153.3525911,-18.43591106,-1.575483991,-42.0239228,128.7573195,
131000000,-3.656906061,104.606902,-66.70858017,-157.1063078,-18.4541099,-2.728963447,-42.18604748,128.187159,
132000000,-3.572181768,103.0290023,-66.6318688,-159.1648873,-18.44472958,-3.904420787,-41.98649499,128.5390701,
133000000,-3.628065226,103.0912298,-63.21400522,-120.7715333,-18.49525688,-5.142269767,-42.18785303,128.0008652,
134000000,-3.648660847,102.311806,-67.24612035,-162.7225778,-18.42428719,-6.474617967,-42.07349464,126.9203192,
135000000,-3.599057158,103.5545805,-66.69782349,-165.198007,-18.57805467,-7.572142322,-42.16567248,126.7498981,
136000000,-3.501633456,101.2954981,-66.59040684,-166.6810019,-18.57857498,-8.558090009,-41.94573084,126.8137784,
137000000,-3.684500814,99.62891872,-66.6408074,-165.7682582,-18.67131987,-9.858508014,-42.01090729,127.7898372,
138000000,-3.639763538,98.90185674,-58.48595092,-137.4056079,-18.66100167,-11.15141424,-42.08796132,127.6170946,
139000000,-3.620320365,98.44216987,-66.33113521,-171.5022425,-18.65930038,-12.16428473,-42.11831357,126.3237301,
140000000,-3.633504491,98.02318595,-66.57263078,-170.5466067,-18.67090853,-13.21737532,-41.99356439,125.8750893,
141000000,-3.492233904,97.0334793,-66.49977981,-173.2119673,-18.64682074,-14.21815785,-41.93848128,126.4268231,
142000000,-3.616851235,96.45152346,-66.26960656,-173.2640897,-18.70882669,-15.53266716,-41.9672261,126.6517273,
143000000,-3.66722303,96.1139669,-65.98848555,-178.2812821,-18.75447492,-16.64552481,-41.96515162,125.6436443,
144000000,-3.306999688,95.84176403,-66.16950582,177.1868152,-18.6031577,-17.72222479,-41.94171909,125.1126389,
145000000,-3.513051781,95.10292729,-66.72031494,179.4375306,-18.72701361,-19.19191204,-42.10734707,125.3531901,
146000000,-3.616315521,94.63612234,-66.23807744,177.5259538,-18.76593523,-20.06328098,-41.86955412,124.753927,
147000000,-3.610482305,93.92078897,-67.71903583,175.3860333,-18.77973194,-21.19938802,-41.92590007,124.5022622,
148000000,-3.649959423,93.36196824,-66.49016418,175.1982178,-18.84377766,-22.01858308,-41.82657405,124.9825831,
149000000,-3.839468023,92.54968591,-65.7939114,170.0684699,-18.9306361,-23.09340823,-41.8290489,125.4610271,
150000000,-3.703050938,92.36374852,-66.27904608,169.9709171,-18.85321222,-24.40839975,-41.98867437,125.0536913,
151000000,-3.896004974,91.27008826,-67.03176385,168.9672458,-18.98695948,-25.15559835,-41.83848483,125.2432458,
152000000,-3.747450375,89.99543715,-66.24607775,170.7245536,-18.9418183,-26.41122646,-41.94292022,124.3432888,
153000000,-3.85833033,90.55981275,-65.2512163,168.1385934,-18.97431484,-27.01792796,-41.82296375,124.4641823,
154000000,-3.887130645,90.27405463,-65.95889722,171.9380168,-18.98378058,-27.75179948,-41.77450246,124.152205,
155000000,-4.129338834,91.05735757,-66.7956995,164.5796059,-19.07274163,-29.6537348,-41.87445406,123.8446547,
156000000,-4.017779312,88.16633531,-65.77549001,165.9244653,-19.10436521,-30.69656231,-41.895238,123.0773809,
157000000,-4.056541252,88.68360981,-67.14946777,161.6993637,-19.07776565,-30.95278276,-41.75560032,124.204286,
158000000,-4.063390047,87.72305322,-67.17735368,163.4857309,-19.05419062,-32.47727578,-41.80250656,122.8738732,
159000000,-4.129890991,87.20409896,-66.41505971,159.994494,-19.10861609,-33.41059704,-41.72280585,124.0096872,
160000000,-4.249340249,87.75596717,-66.81678084,155.0663344,-19.13972381,-34.13865223,-41.64554113,123.4311256,
161000000,-4.169731816,86.40865379,-66.25196562,157.9835486,-19.10529056,-36.08917229,-41.77301694,122.6577689,
162000000,-4.150971922,86.23344306,-65.97265172,153.0146826,-19.04990858,-36.86740723,-41.68317672,121.4643543,
163000000,-4.093289679,85.22719963,-67.83674846,149.7268928,-19.02134412,-37.92875596,-41.62269077,121.9317348,
164000000,-4.111024633,85.46582854,-66.54819167,151.4997857,-19.10748699,-39.31427963,-41.61613528,122.0327575,
165000000,-4.153071337,84.16918916,-66.94838945,148.4980744,-19.09859393,-41.06449927,-41.68472092,121.7692593,
166000000,-4.247869125,83.72055806,-66.12795794,146.7138134,-19.11450514,-42.0755806,-41.59307854,121.3969812,
167000000,-4.514017033,81.17427907,-68.94872136,136.8260927,-19.17926502,-44.25603159,-41.59564444,120.7664074,
168000000,-4.29093027,82.32736596,-67.15598351,144.9571305,-19.11152993,-44.59217186,-41.53060335,120.7865378,
169000000,-4.344064293,82.02505848,-66.45309932,145.7336451,-19.14315704,-45.88358915,-41.52767615,120.6250023,
170000000,-4.287791405,81.52595087,-66.7402846,143.5851603,-19.07815258,-47.05573213,-41.45361055,119.4565024,
171000000,-4.370934661,80.91532447,-66.80106094,143.8032934,-19.14969486,-48.57488364,-41.45339217,119.8111023,
172000000,-4.345530093,79.92387207,-66.46871591,141.635409,-19.13791758,-49.84863878,-41.44673403,119.494899,
173000000,-4.329507448,80.08580006,-66.47066968,138.3312984,-19.23244242,-51.24609168,-41.50494809,118.7547729,
174000000,-4.385089966,79.43798699,-67.24170401,140.0243763,-19.06175791,-52.37073784,-41.36279776,117.8604432,
175000000,-4.512742093,77.58023602,-66.99315272,135.8121864,-19.24165122,-53.75383997,-41.36031036,118.4804559,
176000000,-4.440866655,77.80034175,-66.88869626,133.0624277,-19.10721442,-55.0023848,-41.31136833,117.6619045,
177000000,-4.35038387,77.00738542,-67.15602745,131.3859696,-19.17344652,-56.31185098,-41.32239523,117.936426,
178000000,-4.529720571,76.4778955,-67.88791578,134.2252699,-19.16595433,-57.50450827,-41.30331227,117.1492302,
179000000,-4.510370412,76.04876765,-66.72428966,128.2768637,-19.14899286,-58.8246082,-41.29946274,116.794909,
